Using: /usr/local/packages/synopsys_2015/hspice/hspice/linux64/hspice sram_writehh_power.sp
 ****** HSPICE -- K-2015.06-SP2 linux64 (Nov 18 2015) ******                    
  Copyright (c) 1986 - 2020 by Synopsys, Inc. All Rights Reserved.              
  This software and the associated documentation are proprietary
  to Synopsys, Inc. This software may only be used in accordance
  with the terms and conditions of a written license agreement with
  Synopsys, Inc. All other use, reproduction, or distribution of
  this software is strictly prohibited.
  Input File: sram_writehh_power.sp                                             
  Command line options: /usr/local/packages/synopsys_2015/hspice/hspice/linux64/hspice sram_writehh_power.sp
 lic:  
 lic: FLEXlm: v11.2.1 
 lic: USER:   aarora1              HOSTNAME: luigi 
 lic: HOSTID: "782bcb44a06e"       PID:      49085 
 lic: Using FLEXlm license file: 
 lic: /usr/local/packages/synopsys_2015/key 
 lic: Checkout 1 hspice 
 lic: License/Maintenance for hspice will expire on 14-jan-2021/2019.06 
 lic: 2(in_use)/100(total) FLOATING license(s) on SERVER /usr/local/packages/synopsys_2015/key 
 lic:   
 Init: read install configuration file: /usr/local/packages/synopsys_2015/hspice/hspice/meta.cfg
  **info** (sram_writehh_power.sp:17) DC voltage reset to initial transient source value in source        0:vprecharge. new dc=  0.1000D+01
  **warning** (nmos:mntgate (../basic_subcircuits.l:162)) Warning:  Acde = 0.245565 may be too small in BSIM4 model with w=2e-07 l=2.2e-08.
  **warning** (sram_writehh_power.sp:3383) Unable to find referenced node xprechargesa.n_1_2; Output variable ignored. Specify a valid node.
  

  **warning** the following singular supplies were terminated to 1 meg resistor 
          supply       node1            node2
(../process_data.l:39)vclmomtjn               0:vclmpmtj         defined in subckt 0                     0:0                defined in subckt 0               
(../process_data.l:34)vsupply                 0:vdd              defined in subckt 0                     0:0                defined in subckt 0               
(../process_data.l:38)vrefmtjn                0:vrefmtj          defined in subckt 0                     0:0                defined in subckt 0               
(../process_data.l:37)vsram                   0:vsram            defined in subckt 0                     0:0                defined in subckt 0               
(../process_data.l:40)vsram_n                 0:vsram_n          defined in subckt 0                     0:0                defined in subckt 0               
      
 **info** set option symb=1 internally to help for convergence.
 *****************************************************************
 ******  option summary
 ******
 runlvl  = 3         bypass  = 2         
 **info** dc convergence successful at Newton-Raphson method 

   *** data name = sweep_data , index =     1 ***

 ******
 .title sram write power measurement circuit

 ****** transient analysis tnom=  25.000 temp=  25.000 ******
x

 time         voltage    voltage    voltage    voltage   
             tgate_l    tgate_r    n_bl_0     n_bl_128   
    0.        853.8684m   29.5141m  999.9987m  970.9159m 
    1.00000p  848.5436m   32.3026m  978.5014m  969.8591m 
    2.00000p  841.2775m   35.7802m  964.7066m  966.8520m 
    3.00000p  833.5103m   39.3645m  953.3038m  962.6650m 
    4.00000p  825.6529m   42.9367m  944.2946m  957.0203m 
    5.00000p  817.7955m   46.5090m  935.2854m  951.3756m 
    6.00000p  811.5024m   49.5600m  928.0036m  945.0203m 
    7.00000p  805.3607m   52.5606m  920.8889m  938.5961m 
    8.00000p  799.2190m   55.5612m  913.7742m  932.1719m 
    9.00000p  794.7627m   58.2662m  907.2459m  926.0733m 
   10.00000p  792.1628m   60.6455m  901.3634m  920.3331m 
   11.00000p  789.5628m   63.0249m  895.4810m  914.5929m 
   12.00000p  786.9628m   65.4042m  889.5985m  908.8527m 
   13.00000p  785.3744m   67.6844m  884.1308m  903.3654m 
   14.00000p  787.1895m   69.6306m  880.0588m  898.7292m 
   15.00000p  789.0046m   71.5769m  875.9867m  894.0930m 
   16.00000p  790.8197m   73.5232m  871.9147m  889.4568m 
   17.00000p  792.6348m   75.4695m  867.8427m  884.8206m 
   18.00000p  794.4499m   77.4158m  863.7707m  880.1844m 
   19.00000p  796.2650m   79.3621m  859.6987m  875.5482m 
   20.00000p  798.9020m   81.7234m  856.6979m  871.7689m 
   21.00000p  802.2031m   84.4200m  854.5626m  868.6817m 
   22.00000p  805.5042m   87.1166m  852.4273m  865.5945m 
   23.00000p  808.8053m   89.8132m  850.2920m  862.5073m 
   24.00000p  812.1064m   92.5098m  848.1567m  859.4201m 
   25.00000p  815.4075m   95.2064m  846.0215m  856.3329m 
   26.00000p  818.7085m   97.9030m  843.8862m  853.2458m 
   27.00000p  820.8572m  103.3331m  843.2589m  851.4986m 
   28.00000p  822.6548m  109.5961m  843.0912m  850.1596m 
   29.00000p  824.4524m  115.8591m  842.9235m  848.8207m 
   30.00000p  826.2500m  122.1221m  842.7558m  847.4818m 
   31.00000p  828.0476m  128.3851m  842.5880m  846.1428m 
   32.00000p  829.8452m  134.6480m  842.4203m  844.8039m 
   33.00000p  831.6428m  140.9110m  842.2526m  843.4650m 
   34.00000p  832.8163m  151.2324m  842.4622m  843.0271m 
   35.00000p  833.6826m  163.5504m  842.8574m  843.0324m 
   36.00000p  834.5490m  175.8683m  843.2526m  843.0378m 
   37.00000p  835.4154m  188.1862m  843.6478m  843.0431m 
   38.00000p  836.2817m  200.5042m  844.0430m  843.0485m 
   39.00000p  837.1481m  212.8221m  844.4382m  843.0538m 
   40.00000p  838.0145m  225.1400m  844.8334m  843.0592m 
   41.00000p  838.6867m  238.4536m  844.9758m  843.0327m 
   42.00000p  838.6186m  255.5645m  844.1540m  842.8849m 
   43.00000p  838.5505m  272.6754m  843.3321m  842.7371m 
   44.00000p  838.4824m  289.7863m  842.5103m  842.5893m 
   45.00000p  838.4142m  306.8973m  841.6884m  842.4415m 
   46.00000p  838.3461m  324.0082m  840.8665m  842.2937m 
   47.00000p  838.2780m  341.1191m  840.0447m  842.1459m 
   48.00000p  838.2098m  358.2300m  839.2228m  841.9981m 
   49.00000p  838.1417m  375.3409m  838.4010m  841.8503m 
   50.00000p  838.0736m  392.4518m  837.5791m  841.7025m 
   51.00000p  839.0966m  410.9012m  839.8452m  842.3754m 
   52.00000p  840.1196m  429.3505m  842.1112m  843.0482m 
   53.00000p  841.1425m  447.7998m  844.3773m  843.7211m 
   54.00000p  842.1655m  466.2492m  846.6433m  844.3940m 
   55.00000p  843.1885m  484.6985m  848.9094m  845.0668m 
   56.00000p  844.4163m  504.2103m  851.2828m  845.9181m 
   57.00000p  845.9695m  524.8264m  853.8708m  847.1072m 
   58.00000p  848.0808m  547.1998m  856.8374m  848.8887m 
   59.00000p  850.1922m  569.5733m  859.8039m  850.6703m 
   60.00000p  852.3036m  591.9467m  862.7705m  852.4518m 
   61.00000p  854.4150m  614.3201m  865.7370m  854.2334m 
   62.00000p  857.0647m  635.7098m  869.0227m  856.6113m 
   63.00000p  860.1765m  656.2549m  872.5824m  859.5011m 
   64.00000p  863.2883m  676.8001m  876.1421m  862.3909m 
   65.00000p  866.4001m  697.3452m  879.7018m  865.2807m 
   66.00000p  869.5119m  717.8904m  883.2615m  868.1706m 
   67.00000p  872.6789m  737.7476m  886.8320m  871.1234m 
   68.00000p  876.3066m  751.8625m  890.4926m  874.6024m 
   69.00000p  879.9342m  765.9775m  894.1531m  878.0813m 
   70.00000p  883.5619m  780.0925m  897.8137m  881.5602m 
   71.00000p  887.1896m  794.2074m  901.4742m  885.0391m 
   72.00000p  890.8173m  808.3224m  905.1348m  888.5181m 
   73.00000p  894.4233m  820.8807m  908.6924m  892.0088m 
   74.00000p  897.9787m  829.8108m  912.0099m  895.5272m 
   75.00000p  901.5342m  838.7409m  915.3275m  899.0455m 
   76.00000p  905.0896m  847.6710m  918.6450m  902.5639m 
   77.00000p  908.6451m  856.6012m  921.9625m  906.0822m 
   78.00000p  912.2006m  865.5313m  925.2801m  909.6006m 
   79.00000p  915.7560m  874.4614m  928.5976m  913.1189m 
   80.00000p  919.1959m  882.6775m  931.7703m  916.5371m 
   81.00000p  922.2339m  888.4103m  934.4389m  919.6071m 
   82.00000p  925.2719m  894.1431m  937.1076m  922.6770m 
   83.00000p  928.3099m  899.8760m  939.7762m  925.7469m 
   84.00000p  931.3480m  905.6088m  942.4449m  928.8169m 
   85.00000p  934.3860m  911.3416m  945.1135m  931.8868m 
   86.00000p  937.4240m  917.0745m  947.7822m  934.9568m 
   87.00000p  940.4620m  922.8073m  950.4508m  938.0267m 
   88.00000p  943.0332m  927.1426m  952.6733m  940.6550m 
   89.00000p  945.2870m  930.5277m  954.5924m  942.9829m 
   90.00000p  947.5408m  933.9127m  956.5115m  945.3108m 
   91.00000p  949.7946m  937.2978m  958.4306m  947.6388m 
   92.00000p  952.0485m  940.6829m  960.3497m  949.9667m 
   93.00000p  954.3023m  944.0680m  962.2688m  952.2946m 
   94.00000p  956.5561m  947.4531m  964.1879m  954.6226m 
   95.00000p  958.8099m  950.8381m  966.1070m  956.9505m 
   96.00000p  961.0637m  954.2232m  968.0261m  959.2784m 
   97.00000p  963.2794m  957.5349m  969.9115m  961.5679m 
   98.00000p  964.6808m  959.2804m  971.0775m  963.0355m 
   99.00000p  966.0823m  961.0260m  972.2436m  964.5032m 
  100.00000p  967.4838m  962.7715m  973.4096m  965.9709m 
  101.00000p  968.8853m  964.5170m  974.5757m  967.4386m 
  102.00000p  970.2868m  966.2626m  975.7417m  968.9063m 
  103.00000p  971.6882m  968.0081m  976.9077m  970.3740m 
  104.00000p  973.0897m  969.7537m  978.0738m  971.8417m 
  105.00000p  974.4912m  971.4992m  979.2398m  973.3094m 
  106.00000p  975.8927m  973.2447m  980.4059m  974.7771m 
  107.00000p  977.2942m  974.9903m  981.5719m  976.2448m 
  108.00000p  978.6956m  976.7358m  982.7379m  977.7125m 
  109.00000p  980.0971m  978.4813m  983.9040m  979.1802m 
  110.00000p  981.2405m  979.8699m  984.8516m  980.3806m 
  111.00000p  981.9559m  980.6663m  985.4370m  981.1376m 
  112.00000p  982.6713m  981.4627m  986.0224m  981.8946m 
  113.00000p  983.3866m  982.2591m  986.6078m  982.6516m 
  114.00000p  984.1020m  983.0555m  987.1932m  983.4086m 
  115.00000p  984.8174m  983.8520m  987.7786m  984.1656m 
  116.00000p  985.5328m  984.6484m  988.3640m  984.9225m 
  117.00000p  986.2481m  985.4448m  988.9494m  985.6795m 
  118.00000p  986.9635m  986.2412m  989.5348m  986.4365m 
  119.00000p  987.6789m  987.0377m  990.1202m  987.1935m 
  120.00000p  988.3943m  987.8341m  990.7056m  987.9505m 
  121.00000p  989.1096m  988.6305m  991.2910m  988.7075m 
  122.00000p  989.8250m  989.4269m  991.8765m  989.4645m 
  123.00000p  990.5404m  990.2233m  992.4619m  990.2215m 
  124.00000p  991.2172m  990.9755m  993.0156m  990.9377m 
  125.00000p  991.5151m  991.2918m  993.2582m  991.2524m 
  126.00000p  991.8129m  991.6081m  993.5007m  991.5670m 
  127.00000p  992.1108m  991.9245m  993.7433m  991.8816m 
  128.00000p  992.4087m  992.2408m  993.9859m  992.1963m 
  129.00000p  992.7065m  992.5571m  994.2284m  992.5109m 
  130.00000p  993.0044m  992.8735m  994.4710m  992.8255m 
  131.00000p  993.3022m  993.1898m  994.7135m  993.1402m 
  132.00000p  993.6001m  993.5061m  994.9561m  993.4548m 
  133.00000p  993.8980m  993.8225m  995.1986m  993.7694m 
  134.00000p  994.1958m  994.1388m  995.4412m  994.0841m 
  135.00000p  994.4937m  994.4552m  995.6838m  994.3987m 
  136.00000p  994.7915m  994.7715m  995.9263m  994.7134m 
  137.00000p  995.0894m  995.0878m  996.1689m  995.0280m 
  138.00000p  995.3873m  995.4042m  996.4114m  995.3426m 
  139.00000p  995.6851m  995.7205m  996.6540m  995.6573m 
  140.00000p  995.9830m  996.0368m  996.8966m  995.9719m 
  141.00000p  996.2808m  996.3532m  997.1391m  996.2865m 
  142.00000p  996.5787m  996.6695m  997.3817m  996.6012m 
  143.00000p  996.8766m  996.9858m  997.6242m  996.9158m 
  144.00000p  997.0636m  997.1836m  997.7758m  997.1131m 
  145.00000p  997.1495m  997.2732m  997.8444m  997.2033m 
  146.00000p  997.2354m  997.3628m  997.9129m  997.2935m 
  147.00000p  997.3212m  997.4523m  997.9814m  997.3837m 
  148.00000p  997.4071m  997.5419m  998.0499m  997.4738m 
  149.00000p  997.4930m  997.6314m  998.1184m  997.5640m 
  150.00000p  997.5788m  997.7210m  998.1870m  997.6542m 
  151.00000p  997.6647m  997.8105m  998.2555m  997.7444m 
  152.00000p  997.7506m  997.9001m  998.3240m  997.8346m 
  153.00000p  997.8364m  997.9896m  998.3925m  997.9247m 
  154.00000p  997.9223m  998.0792m  998.4611m  998.0149m 
  155.00000p  998.0082m  998.1687m  998.5296m  998.1051m 
  156.00000p  998.0940m  998.2583m  998.5981m  998.1953m 
  157.00000p  998.1799m  998.3478m  998.6666m  998.2855m 
  158.00000p  998.2658m  998.4374m  998.7352m  998.3757m 
  159.00000p  998.3516m  998.5269m  998.8037m  998.4658m 
  160.00000p  998.4375m  998.6165m  998.8722m  998.5560m 
  161.00000p  998.5234m  998.7060m  998.9407m  998.6462m 
  162.00000p  998.6092m  998.7956m  999.0093m  998.7364m 
  163.00000p  998.6951m  998.8851m  999.0778m  998.8266m 
  164.00000p  998.7810m  998.9747m  999.1463m  998.9167m 
  165.00000p  998.8668m  999.0642m  999.2148m  999.0069m 
  166.00000p  998.9527m  999.1538m  999.2834m  999.0971m 
  167.00000p  999.0386m  999.2433m  999.3519m  999.1873m 
  168.00000p  999.1103m  999.3177m  999.4090m  999.2623m 
  169.00000p  999.1294m  999.3354m  999.4239m  999.2808m 
  170.00000p  999.1485m  999.3532m  999.4387m  999.2993m 
  171.00000p  999.1676m  999.3709m  999.4536m  999.3179m 
  172.00000p  999.1867m  999.3887m  999.4684m  999.3364m 
  173.00000p  999.2059m  999.4064m  999.4833m  999.3550m 
  174.00000p  999.2250m  999.4241m  999.4981m  999.3735m 
  175.00000p  999.2441m  999.4419m  999.5130m  999.3920m 
  176.00000p  999.2632m  999.4596m  999.5278m  999.4106m 
  177.00000p  999.2823m  999.4774m  999.5427m  999.4291m 
  178.00000p  999.3014m  999.4951m  999.5575m  999.4476m 
  179.00000p  999.3205m  999.5129m  999.5724m  999.4662m 
  180.00000p  999.3397m  999.5306m  999.5872m  999.4847m 
  181.00000p  999.3588m  999.5484m  999.6021m  999.5033m 
  182.00000p  999.3779m  999.5661m  999.6169m  999.5218m 
  183.00000p  999.3970m  999.5839m  999.6318m  999.5403m 
  184.00000p  999.4161m  999.6016m  999.6466m  999.5589m 
  185.00000p  999.4352m  999.6194m  999.6615m  999.5774m 
  186.00000p  999.4543m  999.6371m  999.6763m  999.5959m 
  187.00000p  999.4735m  999.6549m  999.6912m  999.6145m 
  188.00000p  999.4926m  999.6726m  999.7060m  999.6330m 
  189.00000p  999.5117m  999.6904m  999.7209m  999.6515m 
  190.00000p  999.5308m  999.7081m  999.7357m  999.6701m 
  191.00000p  999.5499m  999.7259m  999.7506m  999.6886m 
  192.00000p  999.5690m  999.7436m  999.7654m  999.7072m 
  193.00000p  999.5881m  999.7613m  999.7803m  999.7257m 
  194.00000p  999.6072m  999.7791m  999.7951m  999.7442m 
  195.00000p  999.6264m  999.7968m  999.8100m  999.7628m 
  196.00000p  999.6455m  999.8146m  999.8248m  999.7813m 
  197.00000p  999.6646m  999.8323m  999.8397m  999.7998m 
  198.00000p  999.6837m  999.8501m  999.8545m  999.8184m 
  199.00000p  999.7028m  999.8678m  999.8694m  999.8369m 
  200.00000p  999.7219m  999.8856m  999.8842m  999.8555m 
  201.00000p  999.7410m  999.9033m  999.8991m  999.8740m 
  202.00000p  999.7503m  999.9115m  999.9058m  999.8828m 
  203.00000p  999.7526m  999.9129m  999.9069m  999.8847m 
  204.00000p  999.7550m  999.9143m  999.9080m  999.8866m 
  205.00000p  999.7573m  999.9157m  999.9090m  999.8884m 
  206.00000p  999.7596m  999.9171m  999.9101m  999.8903m 
  207.00000p  999.7619m  999.9185m  999.9112m  999.8922m 
  208.00000p  999.7643m  999.9199m  999.9122m  999.8941m 
  209.00000p  999.7666m  999.9213m  999.9133m  999.8960m 
  210.00000p  999.7689m  999.9226m  999.9143m  999.8979m 
  211.00000p  999.7712m  999.9240m  999.9154m  999.8998m 
  212.00000p  999.7736m  999.9254m  999.9165m  999.9017m 
  213.00000p  999.7759m  999.9268m  999.9175m  999.9035m 
  214.00000p  999.7782m  999.9282m  999.9186m  999.9054m 
  215.00000p  999.7805m  999.9296m  999.9196m  999.9073m 
  216.00000p  999.7829m  999.9310m  999.9207m  999.9092m 
  217.00000p  999.7852m  999.9324m  999.9218m  999.9111m 
  218.00000p  999.7875m  999.9338m  999.9228m  999.9130m 
  219.00000p  999.7898m  999.9352m  999.9239m  999.9149m 
  220.00000p  999.7922m  999.9366m  999.9249m  999.9168m 
  221.00000p    1.0002     1.0003     1.0006     1.0003  
  222.00000p    1.0013     1.0014     1.0023     1.0011  
  223.00000p    1.0023     1.0024     1.0041     1.0020  
  224.00000p    1.0034     1.0034     1.0058     1.0028  
  225.00000p    1.0044     1.0045     1.0075     1.0036  
  226.00000p    1.0055     1.0055     1.0090     1.0046  
  227.00000p    1.0066     1.0066     1.0103     1.0055  
  228.00000p    1.0077     1.0076     1.0114     1.0065  
  229.00000p    1.0087     1.0086     1.0123     1.0076  
  230.00000p    1.0098     1.0096     1.0133     1.0086  
  231.00000p    1.0108     1.0106     1.0143     1.0097  
  232.00000p    1.0119     1.0117     1.0152     1.0108  
  233.00000p    1.0130     1.0127     1.0162     1.0118  
  234.00000p    1.0137     1.0137     1.0170     1.0127  
  235.00000p    1.0134     1.0146     1.0173     1.0129  
  236.00000p    1.0131     1.0155     1.0176     1.0132  
  237.00000p    1.0128     1.0164     1.0180     1.0135  
  238.00000p    1.0126     1.0173     1.0183     1.0138  
  239.00000p    1.0123     1.0182     1.0186     1.0140  
  240.00000p    1.0120     1.0191     1.0190     1.0143  
  241.00000p    1.0118     1.0200     1.0193     1.0146  
  242.00000p    1.0115     1.0209     1.0197     1.0149  
  243.00000p    1.0112     1.0218     1.0200     1.0151  
  244.00000p    1.0109     1.0227     1.0203     1.0154  
  245.00000p    1.0107     1.0236     1.0207     1.0157  
  246.00000p    1.0104     1.0245     1.0210     1.0160  
  247.00000p    1.0101     1.0254     1.0213     1.0162  
  248.00000p    1.0099     1.0263     1.0217     1.0165  
  249.00000p    1.0096     1.0272     1.0220     1.0168  
  250.00000p    1.0093     1.0281     1.0224     1.0171  
  251.00000p    1.0091     1.0290     1.0227     1.0173  
  252.00000p    1.0088     1.0299     1.0230     1.0176  
  253.00000p    1.0085     1.0308     1.0234     1.0179  
  254.00000p    1.0071     1.0316     1.0233     1.0178  
  255.00000p    1.0006     1.0324     1.0216     1.0164  
  256.00000p  994.2072m    1.0333     1.0198     1.0150  
  257.00000p  987.7796m    1.0341     1.0181     1.0136  
  258.00000p  981.3520m    1.0349     1.0163     1.0122  
  259.00000p  974.9244m    1.0357     1.0146     1.0108  
  260.00000p  968.4967m    1.0365     1.0129     1.0094  
  261.00000p  962.0691m    1.0373     1.0111     1.0080  
  262.00000p  952.9190m    1.0379     1.0076     1.0052  
  263.00000p  941.8457m    1.0385     1.0029     1.0013  
  264.00000p  930.7724m    1.0390   998.1800m  997.3668m 
  265.00000p  919.6990m    1.0395   993.4598m  993.4659m 
  266.00000p  908.6257m    1.0400   988.7396m  989.5649m 
  267.00000p  897.5524m    1.0405   984.0193m  985.6639m 
  268.00000p  886.4791m    1.0410   979.2991m  981.7630m 
  269.00000p  875.4058m    1.0416   974.5789m  977.8620m 
  270.00000p  864.3325m    1.0421   969.8586m  973.9611m 
  271.00000p  853.8024m    1.0423   964.0436m  969.0618m 
  272.00000p  844.0871m    1.0419   956.5864m  962.6649m 
  273.00000p  834.3717m    1.0416   949.1293m  956.2681m 
  274.00000p  824.6564m    1.0413   941.6721m  949.8713m 
  275.00000p  814.9411m    1.0410   934.2149m  943.4745m 
  276.00000p  805.3022m    1.0406   926.8973m  937.0616m 
  277.00000p  795.8148m    1.0403   919.6915m  930.5642m 
  278.00000p  786.8147m    1.0401   912.6838m  923.7441m 
  279.00000p  777.8146m    1.0398   905.6761m  916.9240m 
  280.00000p  768.8145m    1.0396   898.6684m  910.1039m 
  281.00000p  759.8145m    1.0394   891.6607m  903.2838m 
  282.00000p  751.0193m    1.0392   884.7172m  896.4566m 
  283.00000p  742.5072m    1.0390   877.8624m  889.6196m 
  284.00000p  733.9950m    1.0389   871.0076m  882.7825m 
  285.00000p  725.4829m    1.0387   864.1528m  875.9454m 
  286.00000p  716.9708m    1.0386   857.2980m  869.1084m 
  287.00000p  708.4586m    1.0385   850.4432m  862.2713m 
  288.00000p  699.8782m    1.0383   843.7405m  855.5258m 
  289.00000p  691.2812m    1.0382   837.0745m  848.8024m 
