Using: /usr/local/packages/synopsys_2015/hspice/hspice/linux64/hspice sram_writep_power.sp
 ****** HSPICE -- K-2015.06-SP2 linux64 (Nov 18 2015) ******                    
  Copyright (c) 1986 - 2020 by Synopsys, Inc. All Rights Reserved.              
  This software and the associated documentation are proprietary
  to Synopsys, Inc. This software may only be used in accordance
  with the terms and conditions of a written license agreement with
  Synopsys, Inc. All other use, reproduction, or distribution of
  this software is strictly prohibited.
  Input File: sram_writep_power.sp                                              
  Command line options: /usr/local/packages/synopsys_2015/hspice/hspice/linux64/hspice sram_writep_power.sp
 lic:  
 lic: FLEXlm: v11.2.1 
 lic: USER:   aarora1              HOSTNAME: luigi 
 lic: HOSTID: "782bcb44a06e"       PID:      49157 
 lic: Using FLEXlm license file: 
 lic: /usr/local/packages/synopsys_2015/key 
 lic: Checkout 1 hspice 
 lic: License/Maintenance for hspice will expire on 14-jan-2021/2019.06 
 lic: 2(in_use)/100(total) FLOATING license(s) on SERVER /usr/local/packages/synopsys_2015/key 
 lic:   
 Init: read install configuration file: /usr/local/packages/synopsys_2015/hspice/hspice/meta.cfg
  **info** (sram_writep_power.sp:18) DC voltage reset to initial transient source value in source        0:vdatain. new dc=  0.1000D+01
  **warning** (v_$vdatain:0) pulse rise time is  < or = zero, reset to tstep
  **warning** (v_$vdatain:0) pulse fall time is  < or = zero, reset to tstep
  **warning** (nmos:mntgate (../basic_subcircuits.l:162)) Warning:  Acde = 0.245565 may be too small in BSIM4 model with w=2e-07 l=2.2e-08.
  **warning** (sram_writep_power.sp:3384) Unable to find referenced node xprechargesa.n_1_2; Output variable ignored. Specify a valid node.
  

  **warning** the following singular supplies were terminated to 1 meg resistor 
          supply       node1            node2
(../process_data.l:39)vclmomtjn               0:vclmpmtj         defined in subckt 0                     0:0                defined in subckt 0               
(../process_data.l:34)vsupply                 0:vdd              defined in subckt 0                     0:0                defined in subckt 0               
(../process_data.l:38)vrefmtjn                0:vrefmtj          defined in subckt 0                     0:0                defined in subckt 0               
(../process_data.l:37)vsram                   0:vsram            defined in subckt 0                     0:0                defined in subckt 0               
(../process_data.l:40)vsram_n                 0:vsram_n          defined in subckt 0                     0:0                defined in subckt 0               
      
  **warning** (v_$vdatain:0) pulse rise time is  < or = zero, reset to tstep
  **warning** (v_$vdatain:0) pulse fall time is  < or = zero, reset to tstep
 **info** set option symb=1 internally to help for convergence.
 *****************************************************************
 ******  option summary
 ******
 runlvl  = 3         bypass  = 2         
 **info** dc convergence successful at Newton-Raphson method 

   *** data name = sweep_data , index =     1 ***

 ******
 .title sram write power measurement circuit

 ****** transient analysis tnom=  25.000 temp=  25.000 ******
x

 time         voltage    voltage    voltage    voltage   
             tgate_l    tgate_r    n_bl_0     n_bl_128   
    0.        999.9990m  489.4528n  999.9996m  970.9168m 
    1.00000p  945.2056m  718.5794u  987.3752m  970.7334m 
    2.00000p  949.4211m    7.6765m  978.7951m  969.9463m 
    3.00000p  952.0549m   12.5852m  973.6371m  967.9304m 
    4.00000p  954.2482m   16.9408m  969.1587m  965.7174m 
    5.00000p  955.2077m   19.6917m  966.1757m  963.1944m 
    6.00000p  956.1672m   22.4427m  963.1927m  960.6713m 
    7.00000p  956.6570m   25.2225m  960.5342m  958.4217m 
    8.00000p  956.4097m   28.0478m  958.3849m  956.6014m 
    9.00000p  956.1625m   30.8730m  956.2356m  954.7811m 
   10.00000p  955.9152m   33.6982m  954.0862m  952.9607m 
   11.00000p  954.9703m   35.7693m  952.3697m  951.7144m 
   12.00000p  953.9533m   37.7626m  950.6979m  950.5274m 
   13.00000p  952.9364m   39.7559m  949.0261m  949.3403m 
   14.00000p  951.9195m   41.7492m  947.3543m  948.1532m 
   15.00000p  950.8421m   43.2544m  945.7439m  947.0033m 
   16.00000p  949.5272m   42.8385m  944.3753m  945.9997m 
   17.00000p  948.2123m   42.4227m  943.0066m  944.9960m 
   18.00000p  946.8974m   42.0068m  941.6380m  943.9924m 
   19.00000p  945.5825m   41.5910m  940.2694m  942.9888m 
   20.00000p  944.2676m   41.1752m  938.9008m  941.9851m 
   21.00000p  942.9527m   40.7593m  937.5321m  940.9815m 
   22.00000p  941.6108m   40.6082m  936.1048m  939.9424m 
   23.00000p  940.1447m   41.6745m  934.4075m  938.7404m 
   24.00000p  938.6785m   42.7408m  932.7103m  937.5384m 
   25.00000p  937.2124m   43.8071m  931.0130m  936.3364m 
   26.00000p  935.7463m   44.8734m  929.3157m  935.1344m 
   27.00000p  934.1404m   47.1847m  927.4001m  933.7758m 
   28.00000p  932.1169m   53.2138m  924.8326m  931.9494m 
   29.00000p  930.0935m   59.2430m  922.2651m  930.1230m 
   30.00000p  928.0700m   65.2722m  919.6975m  928.2965m 
   31.00000p  926.0466m   71.3014m  917.1300m  926.4701m 
   32.00000p  924.0232m   77.3305m  914.5624m  924.6437m 
   33.00000p  921.9997m   83.3597m  911.9949m  922.8173m 
   34.00000p  919.4560m   94.3667m  908.9828m  920.3606m 
   35.00000p  916.6740m  107.6534m  905.7671m  917.6152m 
   36.00000p  913.8920m  120.9400m  902.5515m  914.8698m 
   37.00000p  911.1099m  134.2267m  899.3358m  912.1245m 
   38.00000p  908.3279m  147.5134m  896.1202m  909.3791m 
   39.00000p  905.5459m  160.8000m  892.9045m  906.6338m 
   40.00000p  902.7639m  174.0867m  889.6889m  903.8884m 
   41.00000p  899.8380m  189.3602m  886.4361m  900.9596m 
   42.00000p  896.6642m  208.0563m  883.1193m  897.7149m 
   43.00000p  893.4904m  226.7524m  879.8025m  894.4701m 
   44.00000p  890.3166m  245.4485m  876.4857m  891.2254m 
   45.00000p  887.1429m  264.1446m  873.1689m  887.9807m 
   46.00000p  883.9691m  282.8407m  869.8522m  884.7359m 
   47.00000p  880.7953m  301.5368m  866.5354m  881.4912m 
   48.00000p  877.6215m  320.2329m  863.2186m  878.2464m 
   49.00000p  874.4477m  338.9290m  859.9018m  875.0017m 
   50.00000p  871.2739m  357.6251m  856.5850m  871.7569m 
   51.00000p  870.3862m  376.4071m  857.7184m  870.6254m 
   52.00000p  869.4984m  395.1890m  858.8517m  869.4938m 
   53.00000p  868.6107m  413.9709m  859.9850m  868.3622m 
   54.00000p  867.7230m  432.7528m  861.1183m  867.2307m 
   55.00000p  866.8352m  451.5347m  862.2516m  866.0991m 
   56.00000p  866.2409m  471.5643m  863.5578m  865.2747m 
   57.00000p  866.1501m  493.0542m  865.1993m  864.9872m 
   58.00000p  866.7748m  516.5605m  867.3209m  865.4638m 
   59.00000p  867.3996m  540.0669m  869.4424m  865.9404m 
   60.00000p  868.0243m  563.5733m  871.5639m  866.4170m 
   61.00000p  868.6490m  587.0797m  873.6854m  866.8936m 
   62.00000p  870.1543m  609.4999m  876.3307m  868.3358m 
   63.00000p  872.3492m  631.0694m  879.3862m  870.5345m 
   64.00000p  874.5442m  652.6389m  882.4417m  872.7332m 
   65.00000p  876.7392m  674.2084m  885.4972m  874.9318m 
   66.00000p  878.9341m  695.7779m  888.5527m  877.1305m 
   67.00000p  881.1291m  717.3473m  891.6082m  879.3291m 
   68.00000p  883.3241m  738.9168m  894.6637m  881.5278m 
   69.00000p  885.5190m  760.4863m  897.7192m  883.7265m 
   70.00000p  888.5056m  774.9045m  900.9839m  886.7518m 
   71.00000p  891.6038m  788.3149m  904.2781m  889.8937m 
   72.00000p  894.7020m  801.7253m  907.5723m  893.0355m 
   73.00000p  897.8002m  815.1357m  910.8664m  896.1774m 
   74.00000p  900.8984m  828.5461m  914.1606m  899.3192m 
   75.00000p  903.9966m  841.9565m  917.4548m  902.4610m 
   76.00000p  907.0947m  855.3669m  920.7490m  905.6029m 
   77.00000p  910.1432m  864.2222m  923.7083m  908.6958m 
   78.00000p  913.1687m  870.9832m  926.5137m  911.7661m 
   79.00000p  916.1943m  877.7443m  929.3191m  914.8364m 
   80.00000p  919.2199m  884.5054m  932.1244m  917.9068m 
   81.00000p  922.2454m  891.2665m  934.9298m  920.9771m 
   82.00000p  925.2710m  898.0276m  937.7352m  924.0475m 
   83.00000p  928.2966m  904.7887m  940.5405m  927.1178m 
   84.00000p  931.3221m  911.5498m  943.3459m  930.1881m 
   85.00000p  934.3477m  918.3109m  946.1513m  933.2585m 
   86.00000p  937.3733m  925.0720m  948.9566m  936.3288m 
   87.00000p  939.7690m  928.7866m  951.0084m  938.7559m 
   88.00000p  942.0514m  931.9529m  952.9245m  941.0671m 
   89.00000p  944.3338m  935.1191m  954.8406m  943.3783m 
   90.00000p  946.6162m  938.2854m  956.7567m  945.6895m 
   91.00000p  948.8986m  941.4516m  958.6728m  948.0007m 
   92.00000p  951.1810m  944.6179m  960.5889m  950.3119m 
   93.00000p  953.4634m  947.7841m  962.5050m  952.6232m 
   94.00000p  955.7457m  950.9504m  964.4211m  954.9344m 
   95.00000p  958.0281m  954.1166m  966.3372m  957.2456m 
   96.00000p  960.3105m  957.2829m  968.2533m  959.5568m 
   97.00000p  962.5929m  960.4491m  970.1694m  961.8680m 
   98.00000p  964.7345m  963.3568m  971.9602m  964.0387m 
   99.00000p  966.1191m  964.8739m  973.0771m  965.4534m 
  100.00000p  967.5037m  966.3910m  974.1940m  966.8681m 
  101.00000p  968.8883m  967.9081m  975.3109m  968.2829m 
  102.00000p  970.2729m  969.4252m  976.4278m  969.6976m 
  103.00000p  971.6575m  970.9423m  977.5447m  971.1123m 
  104.00000p  973.0421m  972.4594m  978.6616m  972.5270m 
  105.00000p  974.4267m  973.9765m  979.7785m  973.9417m 
  106.00000p  975.8113m  975.4936m  980.8954m  975.3565m 
  107.00000p  977.1958m  977.0107m  982.0123m  976.7712m 
  108.00000p  978.5804m  978.5278m  983.1292m  978.1859m 
  109.00000p  979.9650m  980.0449m  984.2461m  979.6006m 
  110.00000p  981.1484m  981.3187m  985.1957m  980.8078m 
  111.00000p  981.8497m  982.0098m  985.7446m  981.5179m 
  112.00000p  982.5511m  982.7009m  986.2934m  982.2281m 
  113.00000p  983.2525m  983.3921m  986.8423m  982.9382m 
  114.00000p  983.9539m  984.0832m  987.3911m  983.6483m 
  115.00000p  984.6552m  984.7743m  987.9400m  984.3584m 
  116.00000p  985.3566m  985.4654m  988.4888m  985.0685m 
  117.00000p  986.0580m  986.1565m  989.0377m  985.7787m 
  118.00000p  986.7594m  986.8476m  989.5865m  986.4888m 
  119.00000p  987.4607m  987.5388m  990.1353m  987.1989m 
  120.00000p  988.1621m  988.2299m  990.6842m  987.9090m 
  121.00000p  988.8635m  988.9210m  991.2330m  988.6191m 
  122.00000p  989.5648m  989.6121m  991.7819m  989.3293m 
  123.00000p  990.2662m  990.3032m  992.3307m  990.0394m 
  124.00000p  990.9676m  990.9944m  992.8796m  990.7495m 
  125.00000p  991.6690m  991.6855m  993.4284m  991.4596m 
  126.00000p  992.3703m  992.3766m  993.9773m  992.1697m 
  127.00000p  992.6780m  992.6763m  994.2203m  992.4850m 
  128.00000p  992.9340m  992.9246m  994.4233m  992.7485m 
  129.00000p  993.1900m  993.1730m  994.6262m  993.0120m 
  130.00000p  993.4460m  993.4213m  994.8291m  993.2755m 
  131.00000p  993.7020m  993.6696m  995.0321m  993.5390m 
  132.00000p  993.9580m  993.9180m  995.2350m  993.8025m 
  133.00000p  994.2140m  994.1663m  995.4379m  994.0660m 
  134.00000p  994.4700m  994.4147m  995.6409m  994.3295m 
  135.00000p  994.7260m  994.6630m  995.8438m  994.5930m 
  136.00000p  994.9820m  994.9113m  996.0467m  994.8565m 
  137.00000p  995.2380m  995.1597m  996.2497m  995.1200m 
  138.00000p  995.4941m  995.4080m  996.4526m  995.3835m 
  139.00000p  995.7501m  995.6564m  996.6555m  995.6470m 
  140.00000p  996.0061m  995.9047m  996.8585m  995.9105m 
  141.00000p  996.2621m  996.1531m  997.0614m  996.1740m 
  142.00000p  996.5181m  996.4014m  997.2643m  996.4375m 
  143.00000p  996.7741m  996.6497m  997.4673m  996.7010m 
  144.00000p  997.0301m  996.8981m  997.6702m  996.9645m 
  145.00000p  997.2861m  997.1464m  997.8731m  997.2280m 
  146.00000p  997.5421m  997.3948m  998.0761m  997.4915m 
  147.00000p  997.7981m  997.6431m  998.2790m  997.7550m 
  148.00000p  997.8899m  997.7320m  998.3503m  997.8484m 
  149.00000p  997.9546m  997.7948m  998.3999m  997.9139m 
  150.00000p  998.0194m  997.8575m  998.4495m  997.9794m 
  151.00000p  998.0841m  997.9203m  998.4991m  998.0448m 
  152.00000p  998.1489m  997.9830m  998.5487m  998.1103m 
  153.00000p  998.2136m  998.0458m  998.5983m  998.1758m 
  154.00000p  998.2783m  998.1085m  998.6479m  998.2412m 
  155.00000p  998.3431m  998.1712m  998.6975m  998.3067m 
  156.00000p  998.4078m  998.2340m  998.7471m  998.3722m 
  157.00000p  998.4726m  998.2967m  998.7967m  998.4376m 
  158.00000p  998.5373m  998.3595m  998.8463m  998.5031m 
  159.00000p  998.6021m  998.4222m  998.8959m  998.5686m 
  160.00000p  998.6668m  998.4849m  998.9455m  998.6340m 
  161.00000p  998.7316m  998.5477m  998.9951m  998.6995m 
  162.00000p  998.7963m  998.6104m  999.0447m  998.7650m 
  163.00000p  998.8611m  998.6732m  999.0943m  998.8304m 
  164.00000p  998.9258m  998.7359m  999.1439m  998.8959m 
  165.00000p  998.9906m  998.7987m  999.1935m  998.9614m 
  166.00000p  999.0553m  998.8614m  999.2431m  999.0268m 
  167.00000p  999.1201m  998.9241m  999.2927m  999.0923m 
  168.00000p  999.1848m  998.9869m  999.3423m  999.1578m 
  169.00000p  999.2496m  999.0496m  999.3919m  999.2232m 
  170.00000p  999.3143m  999.1124m  999.4415m  999.2887m 
  171.00000p  999.3791m  999.1751m  999.4911m  999.3542m 
  172.00000p  999.4438m  999.2379m  999.5407m  999.4196m 
  173.00000p  999.5086m  999.3006m  999.5903m  999.4851m 
  174.00000p  999.5733m  999.3633m  999.6399m  999.5506m 
  175.00000p  999.6280m  999.4166m  999.6820m  999.6060m 
  176.00000p  999.6372m  999.4272m  999.6901m  999.6160m 
  177.00000p  999.6464m  999.4377m  999.6983m  999.6259m 
  178.00000p  999.6555m  999.4483m  999.7065m  999.6359m 
  179.00000p  999.6647m  999.4589m  999.7146m  999.6459m 
  180.00000p  999.6739m  999.4694m  999.7228m  999.6558m 
  181.00000p  999.6831m  999.4800m  999.7309m  999.6658m 
  182.00000p  999.6923m  999.4906m  999.7391m  999.6758m 
  183.00000p  999.7014m  999.5011m  999.7472m  999.6858m 
  184.00000p  999.7106m  999.5117m  999.7554m  999.6957m 
  185.00000p  999.7198m  999.5222m  999.7635m  999.7057m 
  186.00000p  999.7290m  999.5328m  999.7717m  999.7157m 
  187.00000p  999.7381m  999.5434m  999.7798m  999.7256m 
  188.00000p  999.7473m  999.5539m  999.7880m  999.7356m 
  189.00000p  999.7565m  999.5645m  999.7961m  999.7456m 
  190.00000p  999.7657m  999.5751m  999.8043m  999.7556m 
  191.00000p  999.7749m  999.5856m  999.8124m  999.7655m 
  192.00000p  999.7840m  999.5962m  999.8206m  999.7755m 
  193.00000p  999.7932m  999.6067m  999.8287m  999.7855m 
  194.00000p  999.8024m  999.6173m  999.8369m  999.7955m 
  195.00000p  999.8116m  999.6279m  999.8450m  999.8054m 
  196.00000p  999.8208m  999.6384m  999.8532m  999.8154m 
  197.00000p  999.8299m  999.6490m  999.8613m  999.8254m 
  198.00000p  999.8391m  999.6596m  999.8695m  999.8353m 
  199.00000p  999.8483m  999.6701m  999.8776m  999.8453m 
  200.00000p  999.8575m  999.6807m  999.8858m  999.8553m 
  201.00000p  999.8666m  999.6912m  999.8939m  999.8653m 
  202.00000p  999.8758m  999.7018m  999.9021m  999.8752m 
  203.00000p  999.8850m  999.7124m  999.9102m  999.8852m 
  204.00000p  999.8942m  999.7229m  999.9184m  999.8952m 
  205.00000p  999.9034m  999.7335m  999.9265m  999.9051m 
  206.00000p  999.9125m  999.7441m  999.9347m  999.9151m 
  207.00000p  999.9217m  999.7546m  999.9428m  999.9251m 
  208.00000p  999.9309m  999.7652m  999.9510m  999.9351m 
  209.00000p  999.9401m  999.7757m  999.9591m  999.9450m 
  210.00000p  999.9492m  999.7863m  999.9673m  999.9550m 
  211.00000p  999.9528m  999.7905m  999.9693m  999.9586m 
  212.00000p  999.9544m  999.7924m  999.9691m  999.9600m 
  213.00000p  999.9560m  999.7943m  999.9689m  999.9613m 
  214.00000p  999.9576m  999.7962m  999.9686m  999.9627m 
  215.00000p  999.9592m  999.7982m  999.9684m  999.9640m 
  216.00000p  999.9608m  999.8001m  999.9682m  999.9654m 
  217.00000p  999.9624m  999.8020m  999.9680m  999.9667m 
  218.00000p  999.9640m  999.8039m  999.9678m  999.9681m 
  219.00000p  999.9656m  999.8058m  999.9676m  999.9694m 
  220.00000p  999.9672m  999.8077m  999.9674m  999.9708m 
  221.00000p    1.0004     1.0002     1.0007     1.0003  
  222.00000p    1.0014     1.0013     1.0025     1.0011  
  223.00000p    1.0023     1.0023     1.0044     1.0019  
  224.00000p    1.0033     1.0034     1.0062     1.0027  
  225.00000p    1.0043     1.0045     1.0080     1.0036  
  226.00000p    1.0054     1.0056     1.0093     1.0045  
  227.00000p    1.0064     1.0067     1.0104     1.0055  
  228.00000p    1.0074     1.0078     1.0114     1.0066  
  229.00000p    1.0085     1.0089     1.0123     1.0077  
  230.00000p    1.0095     1.0100     1.0133     1.0088  
  231.00000p    1.0105     1.0110     1.0143     1.0098  
  232.00000p    1.0116     1.0121     1.0153     1.0108  
  233.00000p    1.0126     1.0132     1.0163     1.0117  
  234.00000p    1.0136     1.0143     1.0173     1.0126  
  235.00000p    1.0146     1.0154     1.0184     1.0135  
  236.00000p    1.0156     1.0165     1.0194     1.0145  
  237.00000p    1.0166     1.0176     1.0205     1.0154  
  238.00000p    1.0176     1.0187     1.0215     1.0163  
  239.00000p    1.0187     1.0198     1.0225     1.0172  
  240.00000p    1.0197     1.0208     1.0236     1.0182  
  241.00000p    1.0207     1.0219     1.0246     1.0191  
  242.00000p    1.0217     1.0230     1.0256     1.0200  
  243.00000p    1.0227     1.0241     1.0267     1.0209  
  244.00000p    1.0237     1.0252     1.0277     1.0219  
  245.00000p    1.0247     1.0263     1.0287     1.0228  
  246.00000p    1.0257     1.0274     1.0298     1.0237  
  247.00000p    1.0266     1.0285     1.0306     1.0244  
  248.00000p    1.0273     1.0295     1.0310     1.0244  
  249.00000p    1.0279     1.0305     1.0314     1.0245  
  250.00000p    1.0285     1.0315     1.0318     1.0246  
  251.00000p    1.0292     1.0325     1.0323     1.0246  
  252.00000p    1.0298     1.0336     1.0327     1.0247  
  253.00000p    1.0304     1.0346     1.0331     1.0248  
  254.00000p    1.0311     1.0356     1.0335     1.0248  
  255.00000p    1.0317     1.0366     1.0339     1.0249  
  256.00000p    1.0323     1.0376     1.0343     1.0249  
  257.00000p    1.0330     1.0387     1.0347     1.0250  
  258.00000p    1.0336     1.0397     1.0351     1.0251  
  259.00000p    1.0342     1.0407     1.0355     1.0251  
  260.00000p    1.0349     1.0417     1.0360     1.0252  
  261.00000p    1.0353     1.0427     1.0361     1.0249  
  262.00000p    1.0352     1.0437     1.0358     1.0240  
  263.00000p    1.0351     1.0447     1.0356     1.0232  
  264.00000p    1.0351     1.0456     1.0353     1.0223  
  265.00000p    1.0350     1.0466     1.0350     1.0214  
  266.00000p    1.0350     1.0476     1.0348     1.0205  
  267.00000p    1.0349     1.0485     1.0345     1.0197  
  268.00000p    1.0349     1.0495     1.0342     1.0188  
  269.00000p    1.0348     1.0505     1.0340     1.0179  
  270.00000p    1.0347     1.0515     1.0337     1.0170  
  271.00000p    1.0342     1.0521     1.0326     1.0159  
  272.00000p    1.0329     1.0522     1.0302     1.0145  
  273.00000p    1.0317     1.0524     1.0278     1.0132  
  274.00000p    1.0304     1.0525     1.0255     1.0117  
  275.00000p    1.0291     1.0526     1.0235     1.0102  
  276.00000p    1.0275     1.0526     1.0218     1.0085  
  277.00000p    1.0259     1.0525     1.0201     1.0069  
  278.00000p    1.0244     1.0525     1.0184     1.0052  
  279.00000p    1.0228     1.0525     1.0167     1.0036  
  280.00000p    1.0212     1.0525     1.0150     1.0019  
  281.00000p    1.0195     1.0525     1.0133     1.0003  
  282.00000p    1.0179     1.0525     1.0117   998.6079m 
  283.00000p    1.0163     1.0524     1.0101   996.9587m 
  284.00000p    1.0147     1.0524     1.0084   995.3095m 
