Using: /usr/local/packages/synopsys_2015/hspice/hspice/linux64/hspice sram_writelh_power.sp
 ****** HSPICE -- K-2015.06-SP2 linux64 (Nov 18 2015) ******                    
  Copyright (c) 1986 - 2020 by Synopsys, Inc. All Rights Reserved.              
  This software and the associated documentation are proprietary
  to Synopsys, Inc. This software may only be used in accordance
  with the terms and conditions of a written license agreement with
  Synopsys, Inc. All other use, reproduction, or distribution of
  this software is strictly prohibited.
  Input File: sram_writelh_power.sp                                             
  Command line options: /usr/local/packages/synopsys_2015/hspice/hspice/linux64/hspice sram_writelh_power.sp
 lic:  
 lic: FLEXlm: v11.2.1 
 lic: USER:   aarora1              HOSTNAME: luigi 
 lic: HOSTID: "782bcb44a06e"       PID:      49013 
 lic: Using FLEXlm license file: 
 lic: /usr/local/packages/synopsys_2015/key 
 lic: Checkout 1 hspice 
 lic: License/Maintenance for hspice will expire on 14-jan-2021/2019.06 
 lic: 2(in_use)/100(total) FLOATING license(s) on SERVER /usr/local/packages/synopsys_2015/key 
 lic:   
 Init: read install configuration file: /usr/local/packages/synopsys_2015/hspice/hspice/meta.cfg
  **info** (sram_writelh_power.sp:18) DC voltage reset to initial transient source value in source        0:vdatain. new dc=  0.1000D+01
  **warning** (v_$vdatain:0) pulse rise time is  < or = zero, reset to tstep
  **warning** (v_$vdatain:0) pulse fall time is  < or = zero, reset to tstep
  **warning** (nmos:mntgate (../basic_subcircuits.l:162)) Warning:  Acde = 0.245565 may be too small in BSIM4 model with w=2e-07 l=2.2e-08.
  **warning** (sram_writelh_power.sp:3384) Unable to find referenced node xprechargesa.n_1_2; Output variable ignored. Specify a valid node.
  

  **warning** the following singular supplies were terminated to 1 meg resistor 
          supply       node1            node2
(../process_data.l:39)vclmomtjn               0:vclmpmtj         defined in subckt 0                     0:0                defined in subckt 0               
(../process_data.l:34)vsupply                 0:vdd              defined in subckt 0                     0:0                defined in subckt 0               
(../process_data.l:38)vrefmtjn                0:vrefmtj          defined in subckt 0                     0:0                defined in subckt 0               
(../process_data.l:37)vsram                   0:vsram            defined in subckt 0                     0:0                defined in subckt 0               
(../process_data.l:40)vsram_n                 0:vsram_n          defined in subckt 0                     0:0                defined in subckt 0               
      
  **warning** (v_$vdatain:0) pulse rise time is  < or = zero, reset to tstep
  **warning** (v_$vdatain:0) pulse fall time is  < or = zero, reset to tstep
 **info** set option symb=1 internally to help for convergence.
 *****************************************************************
 ******  option summary
 ******
 runlvl  = 3         bypass  = 2         
 **info** dc convergence successful at Newton-Raphson method 

   *** data name = sweep_data , index =     1 ***

 ******
 .title sram write power measurement circuit

 ****** transient analysis tnom=  25.000 temp=  25.000 ******
x

 time         voltage    voltage    voltage    voltage   
             tgate_l    tgate_r    n_bl_0     n_bl_128   
    0.        853.8684m   29.5141m  999.9987m  970.9159m 
    1.00000p  830.6816m   31.9610m  976.9817m  969.7153m 
    2.00000p  866.4756m   39.3651m  963.6782m  967.2160m 
    3.00000p  890.1575m   43.2489m  957.2282m  962.8358m 
    4.00000p  907.9484m   45.5177m  952.6708m  958.2875m 
    5.00000p  918.7172m   45.8918m  949.9449m  953.8143m 
    6.00000p  929.4860m   46.2658m  947.2191m  949.3412m 
    7.00000p  935.2487m   45.4101m  945.1536m  946.1621m 
    8.00000p  938.4794m   43.9323m  943.4219m  943.6377m 
    9.00000p  941.7102m   42.4546m  941.6903m  941.1132m 
   10.00000p  943.9769m   41.0470m  940.0554m  938.9885m 
   11.00000p  943.9822m   39.8042m  938.6475m  937.8018m 
   12.00000p  943.9876m   38.5613m  937.2395m  936.6150m 
   13.00000p  943.9929m   37.3185m  935.8315m  935.4283m 
   14.00000p  943.9982m   36.0756m  934.4235m  934.2415m 
   15.00000p  943.6854m   35.1591m  933.1258m  933.2013m 
   16.00000p  942.7479m   34.8832m  932.0446m  932.4488m 
   17.00000p  941.8103m   34.6074m  930.9633m  931.6963m 
   18.00000p  940.8728m   34.3315m  929.8821m  930.9438m 
   19.00000p  939.9352m   34.0557m  928.8008m  930.1913m 
   20.00000p  938.9977m   33.7799m  927.7196m  929.4388m 
   21.00000p  938.0601m   33.5040m  926.6384m  928.6863m 
   22.00000p  937.0876m   34.9220m  925.4067m  927.8363m 
   23.00000p  936.1092m   36.6294m  924.1493m  926.9697m 
   24.00000p  935.1308m   38.3368m  922.8919m  926.1030m 
   25.00000p  934.1523m   40.0441m  921.6345m  925.2363m 
   26.00000p  933.1739m   41.7515m  920.3771m  924.3697m 
   27.00000p  932.1955m   43.4589m  919.1198m  923.5030m 
   28.00000p  930.9097m   48.7702m  917.2405m  922.2241m 
   29.00000p  929.5506m   54.9406m  915.2130m  920.8470m 
   30.00000p  928.1916m   61.1110m  913.1856m  919.4699m 
   31.00000p  926.8325m   67.2813m  911.1581m  918.0927m 
   32.00000p  925.4735m   73.4517m  909.1306m  916.7156m 
   33.00000p  924.1145m   79.6221m  907.1031m  915.3385m 
   34.00000p  922.3418m   89.3571m  904.7117m  913.5343m 
   35.00000p  920.1546m  102.6654m  901.9553m  911.3019m 
   36.00000p  917.9673m  115.9737m  899.1990m  909.0696m 
   37.00000p  915.7800m  129.2820m  896.4427m  906.8372m 
   38.00000p  913.5928m  142.5903m  893.6863m  904.6049m 
   39.00000p  911.4055m  155.8986m  890.9300m  902.3725m 
   40.00000p  909.2182m  169.2070m  888.1737m  900.1402m 
   41.00000p  906.8121m  183.8338m  885.3292m  897.7466m 
   42.00000p  903.7123m  202.6387m  882.2057m  894.8418m 
   43.00000p  900.6126m  221.4436m  879.0822m  891.9371m 
   44.00000p  897.5128m  240.2485m  875.9587m  889.0323m 
   45.00000p  894.4131m  259.0534m  872.8351m  886.1276m 
   46.00000p  891.3133m  277.8583m  869.7116m  883.2229m 
   47.00000p  888.2135m  296.6632m  866.5881m  880.3181m 
   48.00000p  885.1138m  315.4681m  863.4645m  877.4134m 
   49.00000p  882.0140m  334.2730m  860.3410m  874.5086m 
   50.00000p  878.9143m  353.0779m  857.2175m  871.6039m 
   51.00000p  877.6623m  371.9587m  858.3499m  870.5479m 
   52.00000p  876.4103m  390.8395m  859.4823m  869.4918m 
   53.00000p  875.1584m  409.7204m  860.6147m  868.4358m 
   54.00000p  873.9064m  428.6012m  861.7471m  867.3798m 
   55.00000p  872.6545m  447.4820m  862.8795m  866.3238m 
   56.00000p  871.6853m  467.6415m  864.1822m  865.5787m 
   57.00000p  871.2458m  489.3821m  865.8408m  865.4005m 
   58.00000p  871.4310m  512.9670m  867.9206m  865.8909m 
   59.00000p  871.6163m  536.5518m  870.0003m  866.3813m 
   60.00000p  871.8015m  560.1367m  872.0800m  866.8717m 
   61.00000p  871.9867m  583.7215m  874.1597m  867.3621m 
   62.00000p  873.1368m  607.0499m  876.7867m  868.8038m 
   63.00000p  874.8559m  630.2272m  879.7364m  870.8066m 
   64.00000p  876.5750m  653.4044m  882.6861m  872.8094m 
   65.00000p  878.2941m  676.5816m  885.6358m  874.8122m 
   66.00000p  880.0131m  699.7588m  888.5855m  876.8149m 
   67.00000p  881.8927m  721.9203m  891.5870m  878.9584m 
   68.00000p  884.6350m  738.6227m  894.8671m  881.8583m 
   69.00000p  887.3772m  755.3251m  898.1472m  884.7581m 
   70.00000p  890.1195m  772.0275m  901.4273m  887.6580m 
   71.00000p  892.8618m  788.7299m  904.7075m  890.5579m 
   72.00000p  895.6040m  805.4323m  907.9876m  893.4577m 
   73.00000p  898.4211m  820.6818m  911.2352m  896.4181m 
   74.00000p  901.5174m  830.5105m  914.3618m  899.6046m 
   75.00000p  904.6136m  840.3392m  917.4883m  902.7910m 
   76.00000p  907.7098m  850.1678m  920.6149m  905.9775m 
   77.00000p  910.8061m  859.9965m  923.7414m  909.1639m 
   78.00000p  913.9023m  869.8252m  926.8679m  912.3503m 
   79.00000p  916.9985m  879.6539m  929.9945m  915.5368m 
   80.00000p  920.0733m  889.1847m  933.0789m  918.6989m 
   81.00000p  922.8295m  894.2948m  935.5383m  921.5002m 
   82.00000p  925.5857m  899.4050m  937.9977m  924.3014m 
   83.00000p  928.3419m  904.5151m  940.4571m  927.1027m 
   84.00000p  931.0981m  909.6252m  942.9165m  929.9039m 
   85.00000p  933.8543m  914.7353m  945.3759m  932.7051m 
   86.00000p  936.6105m  919.8454m  947.8354m  935.5064m 
   87.00000p  939.3667m  924.9555m  950.2948m  938.3076m 
   88.00000p  942.1229m  930.0657m  952.7542m  941.1089m 
   89.00000p  944.8791m  935.1758m  955.2136m  943.9101m 
   90.00000p  947.6353m  940.2859m  957.6730m  946.7114m 
   91.00000p  949.9976m  944.0902m  959.7168m  949.1120m 
   92.00000p  951.9527m  946.5445m  961.3310m  951.0983m 
   93.00000p  953.9078m  948.9988m  962.9453m  953.0847m 
   94.00000p  955.8628m  951.4532m  964.5595m  955.0711m 
   95.00000p  957.8179m  953.9075m  966.1737m  957.0575m 
   96.00000p  959.7730m  956.3618m  967.7880m  959.0438m 
   97.00000p  961.7281m  958.8161m  969.4022m  961.0302m 
   98.00000p  963.6832m  961.2704m  971.0164m  963.0166m 
   99.00000p  965.6383m  963.7248m  972.6307m  965.0030m 
  100.00000p  967.5934m  966.1791m  974.2449m  966.9893m 
  101.00000p  969.5485m  968.6334m  975.8591m  968.9757m 
  102.00000p  970.9989m  970.3198m  977.0368m  970.4493m 
  103.00000p  972.1209m  971.5063m  977.9303m  971.5890m 
  104.00000p  973.2428m  972.6928m  978.8238m  972.7288m 
  105.00000p  974.3648m  973.8793m  979.7174m  973.8685m 
  106.00000p  975.4867m  975.0658m  980.6109m  975.0083m 
  107.00000p  976.6087m  976.2523m  981.5044m  976.1480m 
  108.00000p  977.7307m  977.4388m  982.3979m  977.2878m 
  109.00000p  978.8526m  978.6253m  983.2914m  978.4275m 
  110.00000p  979.9746m  979.8118m  984.1849m  979.5673m 
  111.00000p  981.0965m  980.9983m  985.0784m  980.7070m 
  112.00000p  982.2185m  982.1848m  985.9719m  981.8468m 
  113.00000p  983.3404m  983.3713m  986.8654m  982.9865m 
  114.00000p  984.4624m  984.5578m  987.7589m  984.1263m 
  115.00000p  985.5843m  985.7443m  988.6525m  985.2661m 
  116.00000p  986.3524m  986.5318m  989.2621m  986.0489m 
  117.00000p  986.8557m  987.0209m  989.6595m  986.5649m 
  118.00000p  987.3591m  987.5100m  990.0570m  987.0809m 
  119.00000p  987.8624m  987.9991m  990.4544m  987.5969m 
  120.00000p  988.3658m  988.4882m  990.8518m  988.1129m 
  121.00000p  988.8691m  988.9774m  991.2492m  988.6288m 
  122.00000p  989.3725m  989.4665m  991.6466m  989.1448m 
  123.00000p  989.8758m  989.9556m  992.0440m  989.6608m 
  124.00000p  990.3792m  990.4447m  992.4414m  990.1768m 
  125.00000p  990.8825m  990.9338m  992.8388m  990.6928m 
  126.00000p  991.3859m  991.4229m  993.2362m  991.2087m 
  127.00000p  991.8892m  991.9121m  993.6336m  991.7247m 
  128.00000p  992.3926m  992.4012m  994.0310m  992.2407m 
  129.00000p  992.8959m  992.8903m  994.4285m  992.7567m 
  130.00000p  993.3993m  993.3794m  994.8259m  993.2727m 
  131.00000p  993.9026m  993.8685m  995.2233m  993.7887m 
  132.00000p  994.4060m  994.3576m  995.6207m  994.3046m 
  133.00000p  994.9093m  994.8468m  996.0181m  994.8206m 
  134.00000p  995.0703m  995.0035m  996.1428m  994.9838m 
  135.00000p  995.2305m  995.1595m  996.2670m  995.1462m 
  136.00000p  995.3907m  995.3155m  996.3912m  995.3086m 
  137.00000p  995.5509m  995.4716m  996.5154m  995.4709m 
  138.00000p  995.7111m  995.6276m  996.6395m  995.6333m 
  139.00000p  995.8714m  995.7836m  996.7637m  995.7957m 
  140.00000p  996.0316m  995.9396m  996.8879m  995.9581m 
  141.00000p  996.1918m  996.0956m  997.0120m  996.1205m 
  142.00000p  996.3520m  996.2516m  997.1362m  996.2829m 
  143.00000p  996.5122m  996.4077m  997.2604m  996.4453m 
  144.00000p  996.6725m  996.5637m  997.3845m  996.6077m 
  145.00000p  996.8327m  996.7197m  997.5087m  996.7701m 
  146.00000p  996.9929m  996.8757m  997.6329m  996.9325m 
  147.00000p  997.1531m  997.0317m  997.7570m  997.0948m 
  148.00000p  997.3133m  997.1878m  997.8812m  997.2572m 
  149.00000p  997.4736m  997.3438m  998.0054m  997.4196m 
  150.00000p  997.6338m  997.4998m  998.1295m  997.5820m 
  151.00000p  997.7940m  997.6558m  998.2537m  997.7444m 
  152.00000p  997.9542m  997.8118m  998.3779m  997.9068m 
  153.00000p  998.1144m  997.9678m  998.5020m  998.0692m 
  154.00000p  998.2747m  998.1239m  998.6262m  998.2316m 
  155.00000p  998.4349m  998.2799m  998.7504m  998.3940m 
  156.00000p  998.5951m  998.4359m  998.8746m  998.5564m 
  157.00000p  998.6788m  998.5175m  998.9404m  998.6419m 
  158.00000p  998.7168m  998.5545m  998.9715m  998.6814m 
  159.00000p  998.7548m  998.5915m  999.0025m  998.7209m 
  160.00000p  998.7928m  998.6285m  999.0335m  998.7603m 
  161.00000p  998.8307m  998.6656m  999.0645m  998.7998m 
  162.00000p  998.8687m  998.7026m  999.0955m  998.8393m 
  163.00000p  998.9067m  998.7396m  999.1265m  998.8788m 
  164.00000p  998.9447m  998.7766m  999.1575m  998.9183m 
  165.00000p  998.9826m  998.8136m  999.1885m  998.9578m 
  166.00000p  999.0206m  998.8506m  999.2195m  998.9973m 
  167.00000p  999.0586m  998.8877m  999.2506m  999.0368m 
  168.00000p  999.0966m  998.9247m  999.2816m  999.0763m 
  169.00000p  999.1345m  998.9617m  999.3126m  999.1158m 
  170.00000p  999.1725m  998.9987m  999.3436m  999.1553m 
  171.00000p  999.2105m  999.0357m  999.3746m  999.1947m 
  172.00000p  999.2485m  999.0727m  999.4056m  999.2342m 
  173.00000p  999.2864m  999.1098m  999.4366m  999.2737m 
  174.00000p  999.3244m  999.1468m  999.4676m  999.3132m 
  175.00000p  999.3624m  999.1838m  999.4986m  999.3527m 
  176.00000p  999.4003m  999.2208m  999.5296m  999.3922m 
  177.00000p  999.4383m  999.2578m  999.5607m  999.4317m 
  178.00000p  999.4763m  999.2948m  999.5917m  999.4712m 
  179.00000p  999.5143m  999.3319m  999.6227m  999.5107m 
  180.00000p  999.5522m  999.3689m  999.6537m  999.5502m 
  181.00000p  999.5902m  999.4059m  999.6847m  999.5897m 
  182.00000p  999.6282m  999.4429m  999.7157m  999.6291m 
  183.00000p  999.6662m  999.4799m  999.7467m  999.6686m 
  184.00000p  999.7041m  999.5169m  999.7777m  999.7081m 
  185.00000p  999.7421m  999.5540m  999.8087m  999.7476m 
  186.00000p  999.7801m  999.5910m  999.8397m  999.7871m 
  187.00000p  999.8005m  999.6117m  999.8560m  999.8082m 
  188.00000p  999.8050m  999.6175m  999.8587m  999.8126m 
  189.00000p  999.8095m  999.6233m  999.8615m  999.8171m 
  190.00000p  999.8139m  999.6292m  999.8642m  999.8215m 
  191.00000p  999.8184m  999.6350m  999.8670m  999.8259m 
  192.00000p  999.8229m  999.6409m  999.8698m  999.8303m 
  193.00000p  999.8274m  999.6467m  999.8725m  999.8348m 
  194.00000p  999.8318m  999.6526m  999.8753m  999.8392m 
  195.00000p  999.8363m  999.6584m  999.8781m  999.8436m 
  196.00000p  999.8408m  999.6642m  999.8808m  999.8480m 
  197.00000p  999.8453m  999.6701m  999.8836m  999.8524m 
  198.00000p  999.8498m  999.6759m  999.8864m  999.8569m 
  199.00000p  999.8542m  999.6818m  999.8891m  999.8613m 
  200.00000p  999.8587m  999.6876m  999.8919m  999.8657m 
  201.00000p  999.8632m  999.6935m  999.8947m  999.8701m 
  202.00000p  999.8677m  999.6993m  999.8974m  999.8746m 
  203.00000p  999.8721m  999.7051m  999.9002m  999.8790m 
  204.00000p  999.8766m  999.7110m  999.9029m  999.8834m 
  205.00000p  999.8811m  999.7168m  999.9057m  999.8878m 
  206.00000p  999.8856m  999.7227m  999.9085m  999.8922m 
  207.00000p  999.8900m  999.7285m  999.9112m  999.8967m 
  208.00000p  999.8945m  999.7344m  999.9140m  999.9011m 
  209.00000p  999.8990m  999.7402m  999.9168m  999.9055m 
  210.00000p  999.9035m  999.7460m  999.9195m  999.9099m 
  211.00000p  999.9079m  999.7519m  999.9223m  999.9144m 
  212.00000p  999.9124m  999.7577m  999.9251m  999.9188m 
  213.00000p  999.9169m  999.7636m  999.9278m  999.9232m 
  214.00000p  999.9214m  999.7694m  999.9306m  999.9276m 
  215.00000p  999.9258m  999.7753m  999.9333m  999.9320m 
  216.00000p  999.9303m  999.7811m  999.9361m  999.9365m 
  217.00000p  999.9348m  999.7869m  999.9389m  999.9409m 
  218.00000p  999.9393m  999.7928m  999.9416m  999.9453m 
  219.00000p  999.9437m  999.7986m  999.9444m  999.9497m 
  220.00000p  999.9482m  999.8045m  999.9472m  999.9542m 
  221.00000p    1.0003     1.0002     1.0006     1.0003  
  222.00000p    1.0013     1.0013     1.0021     1.0012  
  223.00000p    1.0023     1.0023     1.0037     1.0020  
  224.00000p    1.0033     1.0034     1.0052     1.0029  
  225.00000p    1.0043     1.0044     1.0068     1.0038  
  226.00000p    1.0053     1.0055     1.0083     1.0046  
  227.00000p    1.0063     1.0065     1.0098     1.0055  
  228.00000p    1.0073     1.0076     1.0110     1.0065  
  229.00000p    1.0083     1.0087     1.0121     1.0075  
  230.00000p    1.0093     1.0097     1.0131     1.0085  
  231.00000p    1.0103     1.0107     1.0141     1.0095  
  232.00000p    1.0113     1.0118     1.0151     1.0105  
  233.00000p    1.0123     1.0128     1.0161     1.0115  
  234.00000p    1.0133     1.0139     1.0170     1.0126  
  235.00000p    1.0143     1.0149     1.0180     1.0136  
  236.00000p    1.0153     1.0160     1.0190     1.0146  
  237.00000p    1.0162     1.0163     1.0198     1.0154  
  238.00000p    1.0167     1.0147     1.0203     1.0157  
  239.00000p    1.0173     1.0132     1.0208     1.0159  
  240.00000p    1.0178     1.0116     1.0213     1.0162  
  241.00000p    1.0184     1.0100     1.0218     1.0164  
  242.00000p    1.0189     1.0085     1.0222     1.0167  
  243.00000p    1.0194     1.0069     1.0227     1.0169  
  244.00000p    1.0200     1.0053     1.0232     1.0172  
  245.00000p    1.0205     1.0038     1.0237     1.0174  
  246.00000p    1.0211     1.0022     1.0242     1.0176  
  247.00000p    1.0216     1.0006     1.0247     1.0179  
  248.00000p    1.0221   999.0705m    1.0251     1.0181  
  249.00000p    1.0227   997.5032m    1.0256     1.0184  
  250.00000p    1.0232   995.9358m    1.0261     1.0186  
  251.00000p    1.0238   994.3684m    1.0266     1.0189  
  252.00000p    1.0243   992.8010m    1.0271     1.0191  
  253.00000p    1.0248   991.2337m    1.0276     1.0193  
  254.00000p    1.0254   989.6663m    1.0280     1.0196  
  255.00000p    1.0259   988.0989m    1.0285     1.0198  
  256.00000p    1.0265   986.5315m    1.0290     1.0201  
  257.00000p    1.0270   984.9642m    1.0295     1.0203  
  258.00000p    1.0275   983.3968m    1.0300     1.0206  
  259.00000p    1.0276   976.4178m    1.0300     1.0200  
  260.00000p    1.0275   968.6745m    1.0300     1.0194  
  261.00000p    1.0274   960.9312m    1.0300     1.0187  
  262.00000p    1.0274   953.1879m    1.0300     1.0181  
  263.00000p    1.0273   945.4445m    1.0299     1.0174  
  264.00000p    1.0273   937.7012m    1.0299     1.0168  
  265.00000p    1.0271   929.6399m    1.0298     1.0160  
  266.00000p    1.0265   919.8617m    1.0290     1.0150  
  267.00000p    1.0259   910.0835m    1.0282     1.0139  
  268.00000p    1.0252   900.3053m    1.0274     1.0128  
  269.00000p    1.0246   890.5271m    1.0267     1.0117  
  270.00000p    1.0240   880.7489m    1.0259     1.0106  
  271.00000p    1.0229   871.7378m    1.0245     1.0093  
  272.00000p    1.0214   863.8774m    1.0222     1.0076  
  273.00000p    1.0198   856.0170m    1.0200     1.0059  
  274.00000p    1.0182   848.1567m    1.0177     1.0042  
  275.00000p    1.0166   840.2963m    1.0154     1.0025  
  276.00000p    1.0150   832.4638m    1.0133     1.0007  
  277.00000p    1.0134   824.8633m    1.0113   998.9340m 
  278.00000p    1.0119   817.5455m    1.0094   997.0994m 
  279.00000p    1.0103   810.2278m    1.0076   995.2649m 
  280.00000p    1.0087   802.9101m    1.0057   993.4303m 
  281.00000p    1.0072   795.7654m    1.0039   991.6079m 
  282.00000p    1.0058   789.0123m    1.0022   989.8127m 
  283.00000p    1.0043   782.2591m    1.0005   988.0175m 
